!Keysight Technologies,E5071C,MY46106721,B.14.12
!Date: Thu Jun 12 12:15:09 2025
!Data & Calibration Information:
!Freq	S11:SOLT1(ON)
!PortZ  Port1:50+j0
!Above PortZ is port z conversion or system Z0 setting when saving the data.
!When reading, reference impedance value at option line is always used.
# Hz S dB R 50
100000	1.651677e-001	-8.955986e+001
42599500	-6.506104e-002	1.726196e+002
85099000	-1.120039e-001	1.656797e+002
127598500	-1.558546e-001	1.589092e+002
170098000	-1.814800e-001	1.522310e+002
212597500	-2.174079e-001	1.455400e+002
255097000	-2.349144e-001	1.385762e+002
297596500	-2.762402e-001	1.316679e+002
340096000	-3.066357e-001	1.245484e+002
382595500	-3.366432e-001	1.172698e+002
425095000	-4.101844e-001	1.098355e+002
467594500	-4.394184e-001	1.025375e+002
510094000	-4.595340e-001	9.417547e+001
552593500	-5.197386e-001	8.538675e+001
595093000	-6.243979e-001	7.568538e+001
637592500	-7.700939e-001	6.441924e+001
680092000	-1.019057e+000	5.037259e+001
722591500	-1.675835e+000	3.125066e+001
765091000	-3.629958e+000	2.282641e+000
807590500	-8.906679e+000	-4.741775e+001
850090000	-1.358296e+001	-1.719793e+002
892589500	-7.473457e+000	1.276263e+002
935089000	-4.842175e+000	1.017360e+002
977588500	-3.665495e+000	8.539720e+001
1020088000	-2.959922e+000	7.174684e+001
1062587500	-2.583619e+000	6.046662e+001
1105087000	-2.374830e+000	4.891095e+001
1147586500	-2.388751e+000	3.748615e+001
1190086000	-2.602622e+000	2.696374e+001
1232585500	-2.955076e+000	1.612650e+001
1275085000	-3.468210e+000	5.110160e+000
1317584500	-4.212191e+000	-6.228323e+000
1360084000	-5.320658e+000	-1.776113e+001
1402583500	-6.944814e+000	-2.831796e+001
1445083000	-8.986514e+000	-3.868476e+001
1487582500	-1.184032e+001	-4.907311e+001
1530082000	-1.711395e+001	-5.356637e+001
1572581500	-2.621717e+001	-3.238537e+001
1615081000	-2.177987e+001	4.515253e+001
1657580500	-1.768778e+001	6.229783e+001
1700080000	-1.331957e+001	6.371569e+001
1742579500	-1.091357e+001	5.376610e+001
1785079000	-9.442613e+000	4.527883e+001
1827578500	-8.530719e+000	4.094320e+001
1870078000	-7.639088e+000	3.636683e+001
1912577500	-6.754791e+000	2.835280e+001
1955077000	-6.262323e+000	2.174852e+001
1997576500	-5.914368e+000	1.654888e+001
2040076000	-5.659432e+000	1.137650e+001
2082575500	-5.406625e+000	6.171394e+000
2125075000	-4.916462e+000	2.402238e+000
2167574500	-4.588453e+000	-3.005269e+000
2210074000	-4.277916e+000	-8.780770e+000
2252573500	-4.038083e+000	-1.419790e+001
2295073000	-3.844742e+000	-1.887673e+001
2337572500	-3.578313e+000	-2.434806e+001
2380072000	-3.399737e+000	-3.061589e+001
2422571500	-3.278225e+000	-3.670572e+001
2465071000	-3.261450e+000	-4.298039e+001
2507570500	-3.336555e+000	-4.917905e+001
2550070000	-3.443015e+000	-5.457399e+001
2592569500	-3.564875e+000	-5.985415e+001
2635069000	-3.768282e+000	-6.598290e+001
2677568500	-4.005264e+000	-7.132649e+001
2720068000	-4.244386e+000	-7.557963e+001
2762567500	-4.504178e+000	-8.003961e+001
2805067000	-4.751713e+000	-8.498666e+001
2847566500	-4.975940e+000	-8.984877e+001
2890066000	-5.359717e+000	-9.422872e+001
2932565500	-5.730552e+000	-9.872849e+001
2975065000	-6.250592e+000	-1.034098e+002
3017564500	-6.776368e+000	-1.068374e+002
3060064000	-7.386879e+000	-1.095462e+002
3102563500	-7.951743e+000	-1.119245e+002
3145063000	-8.554875e+000	-1.135421e+002
3187562500	-9.090940e+000	-1.137743e+002
3230062000	-9.486980e+000	-1.126213e+002
3272561500	-9.813753e+000	-1.117275e+002
3315061000	-9.778585e+000	-1.100868e+002
3357560500	-9.674369e+000	-1.091487e+002
3400060000	-9.452737e+000	-1.097863e+002
3442559500	-9.156690e+000	-1.102700e+002
3485059000	-8.964735e+000	-1.113186e+002
3527558500	-8.693004e+000	-1.122906e+002
3570058000	-8.297593e+000	-1.134041e+002
3612557500	-7.842338e+000	-1.151498e+002
3655057000	-7.332066e+000	-1.181954e+002
3697556500	-6.740742e+000	-1.222203e+002
3740056000	-6.331773e+000	-1.272957e+002
3782555500	-6.054902e+000	-1.330203e+002
3825055000	-5.967062e+000	-1.393068e+002
3867554500	-6.073407e+000	-1.447342e+002
3910054000	-6.093429e+000	-1.488355e+002
3952553500	-6.063309e+000	-1.533413e+002
3995053000	-6.018941e+000	-1.585383e+002
4037552500	-6.131335e+000	-1.633821e+002
4080052000	-6.272917e+000	-1.681771e+002
4122551500	-6.513446e+000	-1.724691e+002
4165051000	-6.622111e+000	-1.762301e+002
4207550500	-6.661446e+000	1.797030e+002
4250050000	-6.729728e+000	1.750513e+002
4292549500	-6.887291e+000	1.692722e+002
4335049000	-7.148692e+000	1.637896e+002
4377548500	-7.623171e+000	1.591059e+002
4420048000	-8.167963e+000	1.547219e+002
4462547500	-8.722977e+000	1.501278e+002
4505047000	-9.410379e+000	1.469890e+002
4547546500	-1.027059e+001	1.453862e+002
4590046000	-1.096727e+001	1.460862e+002
4632545500	-1.129350e+001	1.461369e+002
4675045000	-1.156525e+001	1.461432e+002
4717544500	-1.193224e+001	1.470035e+002
4760044000	-1.211701e+001	1.482266e+002
4802543500	-1.209882e+001	1.495945e+002
4845043000	-1.211896e+001	1.508647e+002
4887542500	-1.198537e+001	1.520361e+002
4930042000	-1.167325e+001	1.528133e+002
4972541500	-1.113937e+001	1.538769e+002
5015041000	-1.053537e+001	1.533178e+002
5057540500	-9.877925e+000	1.511202e+002
5100040000	-9.220843e+000	1.476444e+002
5142539500	-8.800658e+000	1.434707e+002
5185039000	-8.470583e+000	1.393372e+002
5227538500	-8.202324e+000	1.346142e+002
5270038000	-7.937817e+000	1.299614e+002
5312537500	-7.782848e+000	1.247143e+002
5355037000	-7.805480e+000	1.198054e+002
5397536500	-7.893060e+000	1.152944e+002
5440036000	-8.049679e+000	1.111971e+002
5482535500	-8.128853e+000	1.073583e+002
5525035000	-8.165745e+000	1.040461e+002
5567534500	-8.273808e+000	1.008874e+002
5610034000	-8.378246e+000	9.688064e+001
5652533500	-8.431139e+000	9.283110e+001
5695033000	-8.576402e+000	8.898034e+001
5737532500	-8.876365e+000	8.566974e+001
5780032000	-9.171506e+000	8.201221e+001
5822531500	-9.461677e+000	7.807786e+001
5865031000	-9.923006e+000	7.548416e+001
5907530500	-1.057078e+001	7.363799e+001
5950030000	-1.116600e+001	7.229728e+001
5992529500	-1.163458e+001	7.290253e+001
6035029000	-1.215748e+001	7.515068e+001
6077528500	-1.249989e+001	7.738935e+001
6120028000	-1.251571e+001	8.059257e+001
6162527500	-1.219580e+001	8.398777e+001
6205027000	-1.171856e+001	8.666609e+001
6247526500	-1.124246e+001	8.645793e+001
6290026000	-1.062228e+001	8.555150e+001
6332525500	-1.005446e+001	8.404670e+001
6375025000	-9.717406e+000	8.263539e+001
6417524500	-9.412187e+000	8.080605e+001
6460024000	-8.890257e+000	7.881023e+001
6502523500	-8.400034e+000	7.648906e+001
6545023000	-8.036611e+000	7.367133e+001
6587522500	-7.727284e+000	6.993403e+001
6630022000	-7.454338e+000	6.621576e+001
6672521500	-7.329582e+000	6.239308e+001
6715021000	-7.339212e+000	5.889032e+001
6757520500	-7.368775e+000	5.603462e+001
6800020000	-7.349673e+000	5.374832e+001
6842519500	-7.249328e+000	5.194177e+001
6885019000	-7.136214e+000	4.968429e+001
6927518500	-7.066500e+000	4.720516e+001
6970018000	-6.998012e+000	4.476922e+001
7012517500	-6.861704e+000	4.275930e+001
7055017000	-6.758768e+000	4.025201e+001
7097516500	-6.661647e+000	3.773621e+001
7140016000	-6.587090e+000	3.495168e+001
7182515500	-6.512195e+000	3.258979e+001
7225015000	-6.526494e+000	3.031239e+001
7267514500	-6.543494e+000	2.829083e+001
7310014000	-6.473078e+000	2.642986e+001
7352513500	-6.373346e+000	2.490404e+001
7395013000	-6.321312e+000	2.358341e+001
7437512500	-6.220116e+000	2.193617e+001
7480012000	-6.026986e+000	2.050466e+001
7522511500	-5.766455e+000	1.921099e+001
7565011000	-5.528506e+000	1.716330e+001
7607510500	-5.227069e+000	1.471323e+001
7650010000	-4.869294e+000	1.206926e+001
7692509500	-4.564032e+000	9.056290e+000
7735009000	-4.297170e+000	5.260037e+000
7777508500	-4.057469e+000	7.209613e-001
7820008000	-3.878015e+000	-3.670261e+000
7862507500	-3.823128e+000	-8.397709e+000
7905007000	-3.895041e+000	-1.307551e+001
7947506500	-3.979375e+000	-1.749811e+001
7990006000	-4.179153e+000	-2.118951e+001
8032505500	-4.411629e+000	-2.442387e+001
8075005000	-4.667299e+000	-2.770659e+001
8117504500	-4.906567e+000	-3.041334e+001
8160004000	-5.109498e+000	-3.297171e+001
8202503500	-5.311647e+000	-3.513493e+001
8245003000	-5.471368e+000	-3.708387e+001
8287502500	-5.683042e+000	-3.900866e+001
8330002000	-5.819240e+000	-4.064370e+001
8372501500	-5.891559e+000	-4.277389e+001
8415001000	-5.976479e+000	-4.420474e+001
8457500500	-6.053075e+000	-4.603448e+001
8500000000	-6.156988e+000	-4.834049e+001
