!Keysight Technologies,E5071C,MY46106721,B.14.12
!Date: Thu Jun 12 12:18:08 2025
!Data & Calibration Information:
!Freq	S11:SOLT1(ON)
!PortZ  Port1:50+j0
!Above PortZ is port z conversion or system Z0 setting when saving the data.
!When reading, reference impedance value at option line is always used.
# Hz S dB R 50
100000	1.946109e-001	-8.953098e+001
42599500	4.235594e-002	1.732569e+002
85099000	3.881457e-002	1.665264e+002
127598500	1.725938e-002	1.599542e+002
170098000	1.068865e-002	1.533865e+002
212597500	-8.604816e-003	1.467768e+002
255097000	-1.830825e-002	1.400251e+002
297596500	-3.053719e-002	1.331785e+002
340096000	-4.625082e-002	1.261320e+002
382595500	-5.694370e-002	1.188570e+002
425095000	-1.053964e-001	1.114584e+002
467594500	-1.096713e-001	1.038208e+002
510094000	-1.308791e-001	9.535498e+001
552593500	-1.736673e-001	8.627989e+001
595093000	-2.557194e-001	7.632819e+001
637592500	-3.437646e-001	6.460405e+001
680092000	-4.910788e-001	4.972027e+001
722591500	-9.600217e-001	2.928405e+001
765091000	-2.164968e+000	-1.615673e+000
807590500	-5.239256e+000	-5.586018e+001
850090000	-7.672524e+000	-1.466675e+002
892589500	-5.838646e+000	1.483100e+002
935089000	-4.154984e+000	1.163811e+002
977588500	-3.319634e+000	9.733628e+001
1020088000	-2.786609e+000	8.216836e+001
1062587500	-2.510475e+000	6.962926e+001
1105087000	-2.664911e+000	5.753084e+001
1147586500	-2.755631e+000	4.850204e+001
1190086000	-2.874375e+000	3.898698e+001
1232585500	-3.170524e+000	2.907025e+001
1275085000	-3.579692e+000	1.885581e+001
1317584500	-4.283715e+000	8.576245e+000
1360084000	-5.237920e+000	-2.375701e+000
1402583500	-6.874912e+000	-1.305541e+001
1445083000	-9.035068e+000	-2.357284e+001
1487582500	-1.279069e+001	-2.961814e+001
1530082000	-1.813130e+001	-1.868689e+001
1572581500	-2.139966e+001	3.238354e+001
1615081000	-1.547066e+001	6.271719e+001
1657580500	-1.131052e+001	6.083312e+001
1700080000	-9.450738e+000	5.280704e+001
1742579500	-8.352482e+000	4.636703e+001
1785079000	-7.600010e+000	4.174270e+001
1827578500	-6.728401e+000	3.781861e+001
1870078000	-6.255155e+000	3.242371e+001
1912577500	-5.535623e+000	2.915181e+001
1955077000	-4.827379e+000	2.449268e+001
1997576500	-4.143142e+000	1.904947e+001
2040076000	-3.596333e+000	1.225576e+001
2082575500	-3.138028e+000	5.700366e+000
2125075000	-2.777865e+000	-1.180487e+000
2167574500	-2.649676e+000	-8.893332e+000
2210074000	-2.689266e+000	-1.549527e+001
2252573500	-2.707981e+000	-2.104730e+001
2295073000	-2.814193e+000	-2.628531e+001
2337572500	-2.873414e+000	-3.088295e+001
2380072000	-2.886716e+000	-3.487177e+001
2422571500	-2.739484e+000	-3.916373e+001
2465071000	-2.580584e+000	-4.438391e+001
2507570500	-2.529655e+000	-5.016653e+001
2550070000	-2.542068e+000	-5.561482e+001
2592569500	-2.605662e+000	-6.064488e+001
2635069000	-2.707587e+000	-6.625461e+001
2677568500	-2.807683e+000	-7.140568e+001
2720068000	-2.920792e+000	-7.585709e+001
2762567500	-3.042508e+000	-8.086452e+001
2805067000	-3.162465e+000	-8.582372e+001
2847566500	-3.230550e+000	-9.106871e+001
2890066000	-3.420250e+000	-9.657197e+001
2932565500	-3.746827e+000	-1.017816e+002
2975065000	-4.008300e+000	-1.062971e+002
3017564500	-4.192978e+000	-1.109381e+002
3060064000	-4.468507e+000	-1.164581e+002
3102563500	-4.895496e+000	-1.224599e+002
3145063000	-5.571564e+000	-1.275201e+002
3187562500	-6.231901e+000	-1.317414e+002
3230062000	-7.046803e+000	-1.347440e+002
3272561500	-7.901441e+000	-1.352531e+002
3315061000	-8.409514e+000	-1.343552e+002
3357560500	-8.838750e+000	-1.338115e+002
3400060000	-9.200538e+000	-1.319850e+002
3442559500	-9.020899e+000	-1.291781e+002
3485059000	-8.398418e+000	-1.294099e+002
3527558500	-8.087225e+000	-1.317753e+002
3570058000	-7.791074e+000	-1.331686e+002
3612557500	-7.295189e+000	-1.371080e+002
3655057000	-7.132620e+000	-1.421606e+002
3697556500	-7.139290e+000	-1.469093e+002
3740056000	-7.381767e+000	-1.498852e+002
3782555500	-7.391157e+000	-1.512206e+002
3825055000	-7.046169e+000	-1.539970e+002
3867554500	-6.830200e+000	-1.586268e+002
3910054000	-7.053939e+000	-1.619693e+002
3952553500	-6.856310e+000	-1.620877e+002
3995053000	-6.106587e+000	-1.660843e+002
4037552500	-5.665399e+000	-1.734268e+002
4080052000	-5.788854e+000	-1.797132e+002
4122551500	-5.832184e+000	1.753217e+002
4165051000	-5.677762e+000	1.698212e+002
4207550500	-5.766247e+000	1.635151e+002
4250050000	-6.089768e+000	1.580263e+002
4292549500	-6.215726e+000	1.535368e+002
4335049000	-6.222674e+000	1.487251e+002
4377548500	-6.380295e+000	1.420144e+002
4420048000	-6.832669e+000	1.362693e+002
4462547500	-7.248216e+000	1.310599e+002
4505047000	-7.689538e+000	1.266335e+002
4547546500	-8.084115e+000	1.225671e+002
4590046000	-8.685766e+000	1.182876e+002
4632545500	-9.199697e+000	1.151152e+002
4675045000	-9.571606e+000	1.132353e+002
4717544500	-9.936330e+000	1.098963e+002
4760044000	-1.045146e+001	1.068467e+002
4802543500	-1.082249e+001	1.050926e+002
4845043000	-1.115202e+001	1.032840e+002
4887542500	-1.156446e+001	9.863217e+001
4930042000	-1.225375e+001	9.656554e+001
4972541500	-1.293102e+001	9.594630e+001
5015041000	-1.326918e+001	9.437951e+001
5057540500	-1.417542e+001	9.348270e+001
5100040000	-1.512597e+001	9.696147e+001
5142539500	-1.528439e+001	1.029026e+002
5185039000	-1.522389e+001	1.073940e+002
5227538500	-1.483517e+001	1.103309e+002
5270038000	-1.420064e+001	1.139489e+002
5312537500	-1.292499e+001	1.156656e+002
5355037000	-1.206742e+001	1.120351e+002
5397536500	-1.134254e+001	1.091586e+002
5440036000	-1.062762e+001	1.030592e+002
5482535500	-1.010595e+001	9.663131e+001
5525035000	-1.004546e+001	8.985935e+001
5567534500	-1.019166e+001	8.479988e+001
5610034000	-1.024777e+001	7.937733e+001
5652533500	-1.036275e+001	7.377753e+001
5695033000	-1.060242e+001	6.964442e+001
5737532500	-1.095158e+001	6.590694e+001
5780032000	-1.124184e+001	6.143869e+001
5822531500	-1.143550e+001	5.698331e+001
5865031000	-1.192154e+001	5.343198e+001
5907530500	-1.256429e+001	4.951704e+001
5950030000	-1.327841e+001	4.423095e+001
5992529500	-1.416766e+001	4.342775e+001
6035029000	-1.514822e+001	4.506888e+001
6077528500	-1.606409e+001	4.629119e+001
6120028000	-1.621721e+001	4.677945e+001
6162527500	-1.664254e+001	4.686636e+001
6205027000	-1.805651e+001	4.976462e+001
6247526500	-1.977691e+001	5.429685e+001
6290026000	-2.021806e+001	6.390512e+001
6332525500	-1.968588e+001	8.279023e+001
6375025000	-1.829970e+001	9.828400e+001
6417524500	-1.629333e+001	1.019564e+002
6460024000	-1.433560e+001	9.848117e+001
6502523500	-1.300482e+001	9.677071e+001
6545023000	-1.181355e+001	9.498356e+001
6587522500	-1.097483e+001	9.005726e+001
6630022000	-1.021332e+001	8.551557e+001
6672521500	-9.471595e+000	8.151692e+001
6715021000	-8.930211e+000	7.686867e+001
6757520500	-8.489847e+000	7.102294e+001
6800020000	-8.276847e+000	6.579590e+001
6842519500	-8.178328e+000	6.185196e+001
6885019000	-8.180691e+000	5.851639e+001
6927518500	-8.158539e+000	5.598438e+001
6970018000	-8.014885e+000	5.459614e+001
7012517500	-7.656416e+000	5.325755e+001
7055017000	-7.244066e+000	5.046470e+001
7097516500	-7.002901e+000	4.736086e+001
7140016000	-6.634687e+000	4.400930e+001
7182515500	-6.352359e+000	4.034659e+001
7225015000	-6.198487e+000	3.737826e+001
7267514500	-5.990283e+000	3.401401e+001
7310014000	-5.756433e+000	3.095657e+001
7352513500	-5.482443e+000	2.766221e+001
7395013000	-5.372754e+000	2.426832e+001
7437512500	-5.229633e+000	2.107794e+001
7480012000	-4.993095e+000	1.755845e+001
7522511500	-4.773390e+000	1.418677e+001
7565011000	-4.653323e+000	1.018572e+001
7607510500	-4.483335e+000	5.942419e+000
7650010000	-4.292288e+000	1.640251e+000
7692509500	-4.231880e+000	-2.825202e+000
7735009000	-4.254751e+000	-7.784597e+000
7777508500	-4.308347e+000	-1.313755e+001
7820008000	-4.456611e+000	-1.766077e+001
7862507500	-4.743219e+000	-2.203501e+001
7905007000	-5.108842e+000	-2.623538e+001
7947506500	-5.405002e+000	-2.955755e+001
7990006000	-5.760859e+000	-3.204957e+001
8032505500	-6.208546e+000	-3.434246e+001
8075005000	-6.638025e+000	-3.629267e+001
8117504500	-6.954341e+000	-3.718670e+001
8160004000	-7.110465e+000	-3.807571e+001
8202503500	-7.323553e+000	-3.948605e+001
8245003000	-7.546263e+000	-4.017877e+001
8287502500	-7.627832e+000	-4.018960e+001
8330002000	-7.680550e+000	-4.166667e+001
8372501500	-7.797256e+000	-4.312305e+001
8415001000	-7.843223e+000	-4.242429e+001
8457500500	-7.713290e+000	-4.251961e+001
8500000000	-7.519269e+000	-4.424394e+001
